Vg,Vd,Id
0.01,0.01,8.81732e-11
0.02,0.01,1.28639e-10
0.03,0.01,1.87668e-10
0.04,0.01,2.73769e-10
0.05,0.01,3.99339e-10
0.06,0.01,5.82436e-10
0.07,0.01,8.49334e-10
0.08,0.01,1.2382e-09
0.09,0.01,1.8045e-09
0.1,0.01,2.6284e-09
0.11,0.01,3.8254e-09
0.12,0.01,5.5612e-09
0.13,0.01,8.0716e-09
0.14,0.01,1.16879e-08
0.15,0.01,1.68683e-08
0.16,0.01,2.42311e-08
0.17,0.01,3.45824e-08
0.18,0.01,4.89222e-08
0.19,0.01,6.84053e-08
0.2,0.01,9.42329e-08
0.21,0.01,1.27466e-07
0.22,0.01,1.68796e-07
0.23,0.01,2.1834e-07
0.24,0.01,2.75574e-07
0.25,0.01,3.39415e-07
0.26,0.01,4.08439e-07
0.27,0.01,4.81121e-07
0.28,0.01,5.56031e-07
0.29,0.01,6.31947e-07
0.3,0.01,7.07884e-07
0.31,0.01,7.83088e-07
0.32,0.01,8.57e-07
0.33,0.01,9.29213e-07
0.34,0.01,9.99442e-07
0.35,0.01,1.0675e-06
0.36,0.01,1.1332e-06
0.37,0.01,1.1966e-06
0.38,0.01,1.2575e-06
0.39,0.01,1.316e-06
0.4,0.01,1.3721e-06
0.41,0.01,1.4258e-06
0.42,0.01,1.4772e-06
0.43,0.01,1.5263e-06
0.44,0.01,1.5732e-06
0.45,0.01,1.618e-06
0.46,0.01,1.6607e-06
0.47,0.01,1.7015e-06
0.48,0.01,1.7404e-06
0.49,0.01,1.7775e-06
0.5,0.01,1.8129e-06
0.51,0.01,1.8466e-06
0.52,0.01,1.8788e-06
0.53,0.01,1.9095e-06
0.54,0.01,1.9389e-06
0.55,0.01,1.9668e-06
0.56,0.01,1.9936e-06
0.57,0.01,2.0191e-06
0.58,0.01,2.0435e-06
0.59,0.01,2.0668e-06
0.6,0.01,2.089e-06
0.61,0.01,2.1104e-06
0.62,0.01,2.1307e-06
0.63,0.01,2.1503e-06
0.64,0.01,2.1689e-06
0.65,0.01,2.1868e-06
0.66,0.01,2.204e-06
0.67,0.01,2.2204e-06
0.68,0.01,2.2362e-06
0.69,0.01,2.2514e-06
0.7,0.01,2.2659e-06
0.71,0.01,2.2799e-06
0.72,0.01,2.2933e-06
0.73,0.01,2.3061e-06
0.74,0.01,2.3185e-06
0.75,0.01,2.3305e-06
0.76,0.01,2.3419e-06
0.77,0.01,2.353e-06
0.78,0.01,2.3636e-06
0.79,0.01,2.3738e-06
0.8,0.01,2.3837e-06
0.01,0.02,1.48646e-10
0.02,0.02,2.16862e-10
0.03,0.02,3.16373e-10
0.04,0.02,4.61524e-10
0.05,0.02,6.73223e-10
0.06,0.02,9.81923e-10
0.07,0.02,1.432e-09
0.08,0.02,2.0878e-09
0.09,0.02,3.043e-09
0.1,0.02,4.4332e-09
0.11,0.02,6.454e-09
0.12,0.02,9.3869e-09
0.13,0.02,1.3633e-08
0.14,0.02,1.97594e-08
0.15,0.02,2.85555e-08
0.16,0.02,4.10976e-08
0.17,0.02,5.88101e-08
0.18,0.02,8.34989e-08
0.19,0.02,1.17319e-07
0.2,0.02,1.62627e-07
0.21,0.02,2.21686e-07
0.22,0.02,2.96244e-07
0.23,0.02,3.87104e-07
0.24,0.02,4.93847e-07
0.25,0.02,6.14847e-07
0.26,0.02,7.47579e-07
0.27,0.02,8.89082e-07
0.28,0.02,1.0364e-06
0.29,0.02,1.1869e-06
0.3,0.02,1.3383e-06
0.31,0.02,1.4891e-06
0.32,0.02,1.6377e-06
0.33,0.02,1.7834e-06
0.34,0.02,1.9254e-06
0.35,0.02,2.0632e-06
0.36,0.02,2.1966e-06
0.37,0.02,2.3253e-06
0.38,0.02,2.4492e-06
0.39,0.02,2.5683e-06
0.4,0.02,2.6826e-06
0.41,0.02,2.7921e-06
0.42,0.02,2.8969e-06
0.43,0.02,2.9972e-06
0.44,0.02,3.093e-06
0.45,0.02,3.1846e-06
0.46,0.02,3.272e-06
0.47,0.02,3.3554e-06
0.48,0.02,3.435e-06
0.49,0.02,3.5109e-06
0.5,0.02,3.5834e-06
0.51,0.02,3.6525e-06
0.52,0.02,3.7184e-06
0.53,0.02,3.7813e-06
0.54,0.02,3.8414e-06
0.55,0.02,3.8987e-06
0.56,0.02,3.9534e-06
0.57,0.02,4.0057e-06
0.58,0.02,4.0556e-06
0.59,0.02,4.1034e-06
0.6,0.02,4.149e-06
0.61,0.02,4.1926e-06
0.62,0.02,4.2344e-06
0.63,0.02,4.2743e-06
0.64,0.02,4.3126e-06
0.65,0.02,4.3492e-06
0.66,0.02,4.3843e-06
0.67,0.02,4.418e-06
0.68,0.02,4.4503e-06
0.69,0.02,4.4812e-06
0.7,0.02,4.511e-06
0.71,0.02,4.5395e-06
0.72,0.02,4.5669e-06
0.73,0.02,4.5933e-06
0.74,0.02,4.6186e-06
0.75,0.02,4.6429e-06
0.76,0.02,4.6664e-06
0.77,0.02,4.6889e-06
0.78,0.02,4.7106e-06
0.79,0.02,4.7315e-06
0.8,0.02,4.7516e-06
0.01,0.03,1.89992e-10
0.02,0.03,2.77175e-10
0.03,0.03,4.04354e-10
0.04,0.03,5.89861e-10
0.05,0.03,8.60417e-10
0.06,0.03,1.255e-09
0.07,0.03,1.8302e-09
0.08,0.03,2.6685e-09
0.09,0.03,3.8896e-09
0.1,0.03,5.6672e-09
0.11,0.03,8.2522e-09
0.12,0.03,1.20055e-08
0.13,0.03,1.74436e-08
0.14,0.03,2.52983e-08
0.15,0.03,3.65935e-08
0.16,0.03,5.27354e-08
0.17,0.03,7.56043e-08
0.18,0.03,1.07622e-07
0.19,0.03,1.51748e-07
0.2,0.03,2.11336e-07
0.21,0.03,2.89803e-07
0.22,0.03,3.90097e-07
0.23,0.03,5.14075e-07
0.24,0.03,6.61987e-07
0.25,0.03,8.32291e-07
0.26,0.03,1.0219e-06
0.27,0.03,1.2267e-06
0.28,0.03,1.4423e-06
0.29,0.03,1.6646e-06
0.3,0.03,1.89e-06
0.31,0.03,2.1154e-06
0.32,0.03,2.3388e-06
0.33,0.03,2.5584e-06
0.34,0.03,2.773e-06
0.35,0.03,2.9818e-06
0.36,0.03,3.1842e-06
0.37,0.03,3.3798e-06
0.38,0.03,3.5684e-06
0.39,0.03,3.7499e-06
0.4,0.03,3.9242e-06
0.41,0.03,4.0914e-06
0.42,0.03,4.2516e-06
0.43,0.03,4.4049e-06
0.44,0.03,4.5516e-06
0.45,0.03,4.6917e-06
0.46,0.03,4.8256e-06
0.47,0.03,4.9535e-06
0.48,0.03,5.0756e-06
0.49,0.03,5.1921e-06
0.5,0.03,5.3033e-06
0.51,0.03,5.4094e-06
0.52,0.03,5.5106e-06
0.53,0.03,5.6073e-06
0.54,0.03,5.6995e-06
0.55,0.03,5.7876e-06
0.56,0.03,5.8717e-06
0.57,0.03,5.952e-06
0.58,0.03,6.0288e-06
0.59,0.03,6.1021e-06
0.6,0.03,6.1722e-06
0.61,0.03,6.2393e-06
0.62,0.03,6.3035e-06
0.63,0.03,6.3649e-06
0.64,0.03,6.4237e-06
0.65,0.03,6.48e-06
0.66,0.03,6.5339e-06
0.67,0.03,6.5856e-06
0.68,0.03,6.6352e-06
0.69,0.03,6.6828e-06
0.7,0.03,6.7284e-06
0.71,0.03,6.7723e-06
0.72,0.03,6.8144e-06
0.73,0.03,6.8548e-06
0.74,0.03,6.8937e-06
0.75,0.03,6.931e-06
0.76,0.03,6.967e-06
0.77,0.03,7.0015e-06
0.78,0.03,7.0348e-06
0.79,0.03,7.0669e-06
0.8,0.03,7.0977e-06
0.01,0.04,2.18344e-10
0.02,0.04,3.18525e-10
0.03,0.04,4.6466e-10
0.04,0.04,6.7781e-10
0.05,0.04,9.88678e-10
0.06,0.04,1.442e-09
0.07,0.04,2.1029e-09
0.08,0.04,3.0661e-09
0.09,0.04,4.4694e-09
0.1,0.04,6.5123e-09
0.11,0.04,9.4837e-09
0.12,0.04,1.37995e-08
0.13,0.04,2.00554e-08
0.14,0.04,2.90978e-08
0.15,0.04,4.21144e-08
0.16,0.04,6.07444e-08
0.17,0.04,8.71953e-08
0.18,0.04,1.24341e-07
0.19,0.04,1.75752e-07
0.2,0.04,2.45578e-07
0.21,0.04,3.38225e-07
0.22,0.04,4.57783e-07
0.23,0.04,6.07294e-07
0.24,0.04,7.88043e-07
0.25,0.04,9.99135e-07
0.26,0.04,1.2375e-06
0.27,0.04,1.4986e-06
0.28,0.04,1.7767e-06
0.29,0.04,2.0664e-06
0.3,0.04,2.3625e-06
0.31,0.04,2.6607e-06
0.32,0.04,2.9577e-06
0.33,0.04,3.2509e-06
0.34,0.04,3.5383e-06
0.35,0.04,3.8186e-06
0.36,0.04,4.0909e-06
0.37,0.04,4.3545e-06
0.38,0.04,4.6091e-06
0.39,0.04,4.8544e-06
0.4,0.04,5.0903e-06
0.41,0.04,5.3168e-06
0.42,0.04,5.534e-06
0.43,0.04,5.7422e-06
0.44,0.04,5.9414e-06
0.45,0.04,6.132e-06
0.46,0.04,6.3142e-06
0.47,0.04,6.4882e-06
0.48,0.04,6.6545e-06
0.49,0.04,6.8133e-06
0.5,0.04,6.9649e-06
0.51,0.04,7.1096e-06
0.52,0.04,7.2478e-06
0.53,0.04,7.3797e-06
0.54,0.04,7.5057e-06
0.55,0.04,7.626e-06
0.56,0.04,7.7408e-06
0.57,0.04,7.8506e-06
0.58,0.04,7.9555e-06
0.59,0.04,8.0557e-06
0.6,0.04,8.1516e-06
0.61,0.04,8.2432e-06
0.62,0.04,8.331e-06
0.63,0.04,8.4149e-06
0.64,0.04,8.4953e-06
0.65,0.04,8.5722e-06
0.66,0.04,8.646e-06
0.67,0.04,8.7167e-06
0.68,0.04,8.7845e-06
0.69,0.04,8.8495e-06
0.7,0.04,8.9118e-06
0.71,0.04,8.9717e-06
0.72,0.04,9.0292e-06
0.73,0.04,9.0844e-06
0.74,0.04,9.1375e-06
0.75,0.04,9.1885e-06
0.76,0.04,9.2376e-06
0.77,0.04,9.2848e-06
0.78,0.04,9.3302e-06
0.79,0.04,9.3739e-06
0.8,0.04,9.4161e-06
0.01,0.05,2.38336e-10
0.02,0.05,3.47672e-10
0.03,0.05,5.07152e-10
0.04,0.05,7.39758e-10
0.05,0.05,1.079e-09
0.06,0.05,1.5737e-09
0.07,0.05,2.2948e-09
0.08,0.05,3.3459e-09
0.09,0.05,4.8771e-09
0.1,0.05,7.1065e-09
0.11,0.05,1.03493e-08
0.12,0.05,1.50601e-08
0.13,0.05,2.18906e-08
0.14,0.05,3.17676e-08
0.15,0.05,4.59946e-08
0.16,0.05,6.6376e-08
0.17,0.05,9.53532e-08
0.18,0.05,1.36127e-07
0.19,0.05,1.92715e-07
0.2,0.05,2.6987e-07
0.21,0.05,3.72777e-07
0.22,0.05,5.06487e-07
0.23,0.05,6.75148e-07
0.24,0.05,8.81183e-07
0.25,0.05,1.1247e-06
0.26,0.05,1.4032e-06
0.27,0.05,1.7122e-06
0.28,0.05,2.0454e-06
0.29,0.05,2.3963e-06
0.3,0.05,2.7583e-06
0.31,0.05,3.1258e-06
0.32,0.05,3.494e-06
0.33,0.05,3.8592e-06
0.34,0.05,4.2186e-06
0.35,0.05,4.5703e-06
0.36,0.05,4.9128e-06
0.37,0.05,5.245e-06
0.38,0.05,5.5664e-06
0.39,0.05,5.8766e-06
0.4,0.05,6.1753e-06
0.41,0.05,6.4626e-06
0.42,0.05,6.7384e-06
0.43,0.05,7.0029e-06
0.44,0.05,7.2563e-06
0.45,0.05,7.4989e-06
0.46,0.05,7.731e-06
0.47,0.05,7.953e-06
0.48,0.05,8.1652e-06
0.49,0.05,8.3679e-06
0.5,0.05,8.5615e-06
0.51,0.05,8.7465e-06
0.52,0.05,8.9232e-06
0.53,0.05,9.092e-06
0.54,0.05,9.2532e-06
0.55,0.05,9.4072e-06
0.56,0.05,9.5543e-06
0.57,0.05,9.6949e-06
0.58,0.05,9.8292e-06
0.59,0.05,9.9577e-06
0.6,0.05,1.00805e-05
0.61,0.05,1.0198e-05
0.62,0.05,1.03105e-05
0.63,0.05,1.04181e-05
0.64,0.05,1.05211e-05
0.65,0.05,1.06198e-05
0.66,0.05,1.07144e-05
0.67,0.05,1.0805e-05
0.68,0.05,1.08919e-05
0.69,0.05,1.09752e-05
0.7,0.05,1.10552e-05
0.71,0.05,1.11319e-05
0.72,0.05,1.12056e-05
0.73,0.05,1.12764e-05
0.74,0.05,1.13444e-05
0.75,0.05,1.14098e-05
0.76,0.05,1.14726e-05
0.77,0.05,1.1533e-05
0.78,0.05,1.15912e-05
0.79,0.05,1.16471e-05
0.8,0.05,1.1701e-05
0.01,0.06,2.53102e-10
0.02,0.06,3.69189e-10
0.03,0.06,5.38506e-10
0.04,0.06,7.85445e-10
0.05,0.06,1.1456e-09
0.06,0.06,1.6706e-09
0.07,0.06,2.4361e-09
0.08,0.06,3.5518e-09
0.09,0.06,5.177e-09
0.1,0.06,7.5433e-09
0.11,0.06,1.09853e-08
0.12,0.06,1.5986e-08
0.13,0.06,2.32378e-08
0.14,0.06,3.37264e-08
0.15,0.06,4.88402e-08
0.16,0.06,7.05041e-08
0.17,0.06,1.01331e-07
0.18,0.06,1.44761e-07
0.19,0.06,2.05141e-07
0.2,0.06,2.87672e-07
0.21,0.06,3.98126e-07
0.22,0.06,5.42309e-07
0.23,0.06,7.25277e-07
0.24,0.06,9.50491e-07
0.25,0.06,1.2191e-06
0.26,0.06,1.5296e-06
0.27,0.06,1.8778e-06
0.28,0.06,2.2578e-06
0.29,0.06,2.6622e-06
0.3,0.06,3.0836e-06
0.31,0.06,3.5149e-06
0.32,0.06,3.9503e-06
0.33,0.06,4.3846e-06
0.34,0.06,4.8141e-06
0.35,0.06,5.2359e-06
0.36,0.06,5.6479e-06
0.37,0.06,6.0487e-06
0.38,0.06,6.4373e-06
0.39,0.06,6.813e-06
0.4,0.06,7.1754e-06
0.41,0.06,7.5244e-06
0.42,0.06,7.8599e-06
0.43,0.06,8.1821e-06
0.44,0.06,8.4911e-06
0.45,0.06,8.7873e-06
0.46,0.06,9.0709e-06
0.47,0.06,9.3423e-06
0.48,0.06,9.602e-06
0.49,0.06,9.8502e-06
0.5,0.06,1.00876e-05
0.51,0.06,1.03144e-05
0.52,0.06,1.05312e-05
0.53,0.06,1.07383e-05
0.54,0.06,1.09363e-05
0.55,0.06,1.11254e-05
0.56,0.06,1.13063e-05
0.57,0.06,1.14791e-05
0.58,0.06,1.16443e-05
0.59,0.06,1.18023e-05
0.6,0.06,1.19534e-05
0.61,0.06,1.2098e-05
0.62,0.06,1.22364e-05
0.63,0.06,1.23689e-05
0.64,0.06,1.24957e-05
0.65,0.06,1.26172e-05
0.66,0.06,1.27336e-05
0.67,0.06,1.28451e-05
0.68,0.06,1.29521e-05
0.69,0.06,1.30547e-05
0.7,0.06,1.31531e-05
0.71,0.06,1.32476e-05
0.72,0.06,1.33383e-05
0.73,0.06,1.34254e-05
0.74,0.06,1.3509e-05
0.75,0.06,1.35894e-05
0.76,0.06,1.36667e-05
0.77,0.06,1.37411e-05
0.78,0.06,1.38125e-05
0.79,0.06,1.38813e-05
0.8,0.06,1.39476e-05
0.01,0.07,2.64426e-10
0.02,0.07,3.85679e-10
0.03,0.07,5.62519e-10
0.04,0.07,8.20412e-10
0.05,0.07,1.1965e-09
0.06,0.07,1.7448e-09
0.07,0.07,2.5441e-09
0.08,0.07,3.7089e-09
0.09,0.07,5.4058e-09
0.1,0.07,7.8762e-09
0.11,0.07,1.14699e-08
0.12,0.07,1.66908e-08
0.13,0.07,2.42626e-08
0.14,0.07,3.52155e-08
0.15,0.07,5.10017e-08
0.16,0.07,7.36377e-08
0.17,0.07,1.05865e-07
0.18,0.07,1.51305e-07
0.19,0.07,2.14554e-07
0.2,0.07,3.01149e-07
0.21,0.07,4.17312e-07
0.22,0.07,5.69421e-07
0.23,0.07,7.63253e-07
0.24,0.07,1.0031e-06
0.25,0.07,1.2911e-06
0.26,0.07,1.6266e-06
0.27,0.07,2.0064e-06
0.28,0.07,2.4247e-06
0.29,0.07,2.8744e-06
0.3,0.07,3.3475e-06
0.31,0.07,3.836e-06
0.32,0.07,4.3329e-06
0.33,0.07,4.8318e-06
0.34,0.07,5.3279e-06
0.35,0.07,5.8174e-06
0.36,0.07,6.2973e-06
0.37,0.07,6.7656e-06
0.38,0.07,7.2208e-06
0.39,0.07,7.6619e-06
0.4,0.07,8.0883e-06
0.41,0.07,8.4996e-06
0.42,0.07,8.8957e-06
0.43,0.07,9.2765e-06
0.44,0.07,9.6423e-06
0.45,0.07,9.9933e-06
0.46,0.07,1.03297e-05
0.47,0.07,1.0652e-05
0.48,0.07,1.09606e-05
0.49,0.07,1.12559e-05
0.5,0.07,1.15384e-05
0.51,0.07,1.18086e-05
0.52,0.07,1.2067e-05
0.53,0.07,1.23141e-05
0.54,0.07,1.25502e-05
0.55,0.07,1.27761e-05
0.56,0.07,1.2992e-05
0.57,0.07,1.31985e-05
0.58,0.07,1.33959e-05
0.59,0.07,1.35848e-05
0.6,0.07,1.37655e-05
0.61,0.07,1.39384e-05
0.62,0.07,1.41039e-05
0.63,0.07,1.42624e-05
0.64,0.07,1.44142e-05
0.65,0.07,1.45595e-05
0.66,0.07,1.46988e-05
0.67,0.07,1.48324e-05
0.68,0.07,1.49604e-05
0.69,0.07,1.50831e-05
0.7,0.07,1.52009e-05
0.71,0.07,1.5314e-05
0.72,0.07,1.54225e-05
0.73,0.07,1.55267e-05
0.74,0.07,1.56268e-05
0.75,0.07,1.5723e-05
0.76,0.07,1.58154e-05
0.77,0.07,1.59043e-05
0.78,0.07,1.59898e-05
0.79,0.07,1.6072e-05
0.8,0.07,1.61511e-05
0.01,0.08,2.73362e-10
0.02,0.08,3.98681e-10
0.03,0.08,5.81436e-10
0.04,0.08,8.47934e-10
0.05,0.08,1.2365e-09
0.06,0.08,1.803e-09
0.07,0.08,2.6288e-09
0.08,0.08,3.8322e-09
0.09,0.08,5.5851e-09
0.1,0.08,8.137e-09
0.11,0.08,1.18489e-08
0.12,0.08,1.72417e-08
0.13,0.08,2.50628e-08
0.14,0.08,3.63771e-08
0.15,0.08,5.26864e-08
0.16,0.08,7.60775e-08
0.17,0.08,1.09392e-07
0.18,0.08,1.56389e-07
0.19,0.08,2.21859e-07
0.2,0.08,3.11598e-07
0.21,0.08,4.3217e-07
0.22,0.08,5.90403e-07
0.23,0.08,7.92632e-07
0.24,0.08,1.0438e-06
0.25,0.08,1.3469e-06
0.26,0.08,1.7021e-06
0.27,0.08,2.1069e-06
0.28,0.08,2.5564e-06
0.29,0.08,3.0436e-06
0.3,0.08,3.5606e-06
0.31,0.08,4.099e-06
0.32,0.08,4.6506e-06
0.33,0.08,5.2085e-06
0.34,0.08,5.7665e-06
0.35,0.08,6.3198e-06
0.36,0.08,6.8647e-06
0.37,0.08,7.3984e-06
0.38,0.08,7.9187e-06
0.39,0.08,8.4243e-06
0.4,0.08,8.9142e-06
0.41,0.08,9.3878e-06
0.42,0.08,9.8446e-06
0.43,0.08,1.02847e-05
0.44,0.08,1.0708e-05
0.45,0.08,1.11146e-05
0.46,0.08,1.1505e-05
0.47,0.08,1.18793e-05
0.48,0.08,1.22381e-05
0.49,0.08,1.25818e-05
0.5,0.08,1.29108e-05
0.51,0.08,1.32258e-05
0.52,0.08,1.35272e-05
0.53,0.08,1.38156e-05
0.54,0.08,1.40914e-05
0.55,0.08,1.43553e-05
0.56,0.08,1.46077e-05
0.57,0.08,1.48492e-05
0.58,0.08,1.50802e-05
0.59,0.08,1.53013e-05
0.6,0.08,1.55128e-05
0.61,0.08,1.57153e-05
0.62,0.08,1.59092e-05
0.63,0.08,1.60948e-05
0.64,0.08,1.62726e-05
0.65,0.08,1.6443e-05
0.66,0.08,1.66062e-05
0.67,0.08,1.67627e-05
0.68,0.08,1.69127e-05
0.69,0.08,1.70566e-05
0.7,0.08,1.71947e-05
0.71,0.08,1.73271e-05
0.72,0.08,1.74543e-05
0.73,0.08,1.75764e-05
0.74,0.08,1.76937e-05
0.75,0.08,1.78064e-05
0.76,0.08,1.79147e-05
0.77,0.08,1.80187e-05
0.78,0.08,1.81188e-05
0.79,0.08,1.82151e-05
0.8,0.08,1.83077e-05
0.01,0.09,2.80644e-10
0.02,0.09,4.09266e-10
0.03,0.09,5.96822e-10
0.04,0.09,8.70298e-10
0.05,0.09,1.269e-09
0.06,0.09,1.8503e-09
0.07,0.09,2.6975e-09
0.08,0.09,3.9319e-09
0.09,0.09,5.73e-09
0.1,0.09,8.3475e-09
0.11,0.09,1.21547e-08
0.12,0.09,1.76856e-08
0.13,0.09,2.57068e-08
0.14,0.09,3.73107e-08
0.15,0.09,5.40384e-08
0.16,0.09,7.80324e-08
0.17,0.09,1.12213e-07
0.18,0.09,1.60448e-07
0.19,0.09,2.27678e-07
0.2,0.09,3.19901e-07
0.21,0.09,4.43949e-07
0.22,0.09,6.06994e-07
0.23,0.09,8.15812e-07
0.24,0.09,1.0759e-06
0.25,0.09,1.3909e-06
0.26,0.09,1.7616e-06
0.27,0.09,2.1864e-06
0.28,0.09,2.661e-06
0.29,0.09,3.179e-06
0.3,0.09,3.7327e-06
0.31,0.09,4.3135e-06
0.32,0.09,4.9131e-06
0.33,0.09,5.5235e-06
0.34,0.09,6.1379e-06
0.35,0.09,6.7504e-06
0.36,0.09,7.3563e-06
0.37,0.09,7.9522e-06
0.38,0.09,8.5352e-06
0.39,0.09,9.1035e-06
0.4,0.09,9.6556e-06
0.41,0.09,1.01906e-05
0.42,0.09,1.07078e-05
0.43,0.09,1.1207e-05
0.44,0.09,1.16879e-05
0.45,0.09,1.21508e-05
0.46,0.09,1.25956e-05
0.47,0.09,1.30229e-05
0.48,0.09,1.34328e-05
0.49,0.09,1.38259e-05
0.5,0.09,1.42027e-05
0.51,0.09,1.45636e-05
0.52,0.09,1.49093e-05
0.53,0.09,1.52403e-05
0.54,0.09,1.55571e-05
0.55,0.09,1.58603e-05
0.56,0.09,1.61505e-05
0.57,0.09,1.64283e-05
0.58,0.09,1.66942e-05
0.59,0.09,1.69487e-05
0.6,0.09,1.71923e-05
0.61,0.09,1.74256e-05
0.62,0.09,1.76489e-05
0.63,0.09,1.78629e-05
0.64,0.09,1.80678e-05
0.65,0.09,1.82642e-05
0.66,0.09,1.84524e-05
0.67,0.09,1.86329e-05
0.68,0.09,1.88059e-05
0.69,0.09,1.89718e-05
0.7,0.09,1.9131e-05
0.71,0.09,1.92838e-05
0.72,0.09,1.94304e-05
0.73,0.09,1.95712e-05
0.74,0.09,1.97064e-05
0.75,0.09,1.98363e-05
0.76,0.09,1.99611e-05
0.77,0.09,2.0081e-05
0.78,0.09,2.01963e-05
0.79,0.09,2.03072e-05
0.8,0.09,2.04139e-05
0.01,0.1,2.86803e-10
0.02,0.1,4.18209e-10
0.03,0.1,6.09808e-10
0.04,0.1,8.89153e-10
0.05,0.1,1.2964e-09
0.06,0.1,1.89e-09
0.07,0.1,2.7552e-09
0.08,0.1,4.0157e-09
0.09,0.1,5.8515e-09
0.1,0.1,8.5238e-09
0.11,0.1,1.24104e-08
0.12,0.1,1.80563e-08
0.13,0.1,2.62439e-08
0.14,0.1,3.80881e-08
0.15,0.1,5.51621e-08
0.16,0.1,7.9654e-08
0.17,0.1,1.14547e-07
0.18,0.1,1.63798e-07
0.19,0.1,2.32464e-07
0.2,0.1,3.26704e-07
0.21,0.1,4.53559e-07
0.22,0.1,6.20469e-07
0.23,0.1,8.34551e-07
0.24,0.1,1.1018e-06
0.25,0.1,1.4261e-06
0.26,0.1,1.8092e-06
0.27,0.1,2.2499e-06
0.28,0.1,2.7447e-06
0.29,0.1,3.2878e-06
0.3,0.1,3.8718e-06
0.31,0.1,4.4885e-06
0.32,0.1,5.1293e-06
0.33,0.1,5.7859e-06
0.34,0.1,6.4507e-06
0.35,0.1,7.117e-06
0.36,0.1,7.7795e-06
0.37,0.1,8.4337e-06
0.38,0.1,9.0762e-06
0.39,0.1,9.7046e-06
0.4,0.1,1.03168e-05
0.41,0.1,1.09116e-05
0.42,0.1,1.14881e-05
0.43,0.1,1.20456e-05
0.44,0.1,1.25838e-05
0.45,0.1,1.31027e-05
0.46,0.1,1.36023e-05
0.47,0.1,1.40828e-05
0.48,0.1,1.45445e-05
0.49,0.1,1.49878e-05
0.5,0.1,1.54131e-05
0.51,0.1,1.5821e-05
0.52,0.1,1.6212e-05
0.53,0.1,1.65866e-05
0.54,0.1,1.69456e-05
0.55,0.1,1.72893e-05
0.56,0.1,1.76185e-05
0.57,0.1,1.79338e-05
0.58,0.1,1.82357e-05
0.59,0.1,1.85248e-05
0.6,0.1,1.88017e-05
0.61,0.1,1.90668e-05
0.62,0.1,1.93208e-05
0.63,0.1,1.95642e-05
0.64,0.1,1.97973e-05
0.65,0.1,2.00208e-05
0.66,0.1,2.0235e-05
0.67,0.1,2.04403e-05
0.68,0.1,2.06372e-05
0.69,0.1,2.08261e-05
0.7,0.1,2.10073e-05
0.71,0.1,2.11812e-05
0.72,0.1,2.13481e-05
0.73,0.1,2.15083e-05
0.74,0.1,2.16622e-05
0.75,0.1,2.18099e-05
0.76,0.1,2.19519e-05
0.77,0.1,2.20884e-05
0.78,0.1,2.22195e-05
0.79,0.1,2.23456e-05
0.8,0.1,2.24668e-05
0.01,0.11,2.92206e-10
0.02,0.11,4.26046e-10
0.03,0.11,6.21174e-10
0.04,0.11,9.05639e-10
0.05,0.11,1.3203e-09
0.06,0.11,1.9247e-09
0.07,0.11,2.8054e-09
0.08,0.11,4.0886e-09
0.09,0.11,5.9572e-09
0.1,0.11,8.6769e-09
0.11,0.11,1.26321e-08
0.12,0.11,1.83773e-08
0.13,0.11,2.67082e-08
0.14,0.11,3.8759e-08
0.15,0.11,5.61301e-08
0.16,0.11,8.10476e-08
0.17,0.11,1.16548e-07
0.18,0.11,1.66659e-07
0.19,0.11,2.36538e-07
0.2,0.11,3.32468e-07
0.21,0.11,4.61656e-07
0.22,0.11,6.31753e-07
0.23,0.11,8.5014e-07
0.24,0.11,1.1231e-06
0.25,0.11,1.4551e-06
0.26,0.11,1.8481e-06
0.27,0.11,2.3016e-06
0.28,0.11,2.8126e-06
0.29,0.11,3.3761e-06
0.3,0.11,3.985e-06
0.31,0.11,4.6316e-06
0.32,0.11,5.3074e-06
0.33,0.11,6.0039e-06
0.34,0.11,6.7131e-06
0.35,0.11,7.4278e-06
0.36,0.11,8.1418e-06
0.37,0.11,8.85e-06
0.38,0.11,9.5484e-06
0.39,0.11,1.02336e-05
0.4,0.11,1.09033e-05
0.41,0.11,1.15558e-05
0.42,0.11,1.21897e-05
0.43,0.11,1.28043e-05
0.44,0.11,1.33988e-05
0.45,0.11,1.39731e-05
0.46,0.11,1.45271e-05
0.47,0.11,1.50607e-05
0.48,0.11,1.55743e-05
0.49,0.11,1.60681e-05
0.5,0.11,1.65425e-05
0.51,0.11,1.69979e-05
0.52,0.11,1.7435e-05
0.53,0.11,1.78542e-05
0.54,0.11,1.82561e-05
0.55,0.11,1.86414e-05
0.56,0.11,1.90106e-05
0.57,0.11,1.93645e-05
0.58,0.11,1.97034e-05
0.59,0.11,2.00282e-05
0.6,0.11,2.03394e-05
0.61,0.11,2.06375e-05
0.62,0.11,2.09232e-05
0.63,0.11,2.11969e-05
0.64,0.11,2.14593e-05
0.65,0.11,2.17108e-05
0.66,0.11,2.19519e-05
0.67,0.11,2.2183e-05
0.68,0.11,2.24047e-05
0.69,0.11,2.26174e-05
0.7,0.11,2.28214e-05
0.71,0.11,2.30172e-05
0.72,0.11,2.32051e-05
0.73,0.11,2.33855e-05
0.74,0.11,2.35587e-05
0.75,0.11,2.37251e-05
0.76,0.11,2.38849e-05
0.77,0.11,2.40384e-05
0.78,0.11,2.4186e-05
0.79,0.11,2.43278e-05
0.8,0.11,2.44642e-05
0.01,0.12,2.97096e-10
0.02,0.12,4.33132e-10
0.03,0.12,6.31442e-10
0.04,0.12,9.20515e-10
0.05,0.12,1.3419e-09
0.06,0.12,1.9559e-09
0.07,0.12,2.8507e-09
0.08,0.12,4.154e-09
0.09,0.12,6.052e-09
0.1,0.12,8.8141e-09
0.11,0.12,1.28306e-08
0.12,0.12,1.86642e-08
0.13,0.12,2.71227e-08
0.14,0.12,3.93569e-08
0.15,0.12,5.6991e-08
0.16,0.12,8.22843e-08
0.17,0.12,1.18318e-07
0.18,0.12,1.69184e-07
0.19,0.12,2.40116e-07
0.2,0.12,3.37506e-07
0.21,0.12,4.68693e-07
0.22,0.12,6.41495e-07
0.23,0.12,8.63497e-07
0.24,0.12,1.1412e-06
0.25,0.12,1.4794e-06
0.26,0.12,1.8806e-06
0.27,0.12,2.3445e-06
0.28,0.12,2.8688e-06
0.29,0.12,3.4488e-06
0.3,0.12,4.0782e-06
0.31,0.12,4.7495e-06
0.32,0.12,5.4546e-06
0.33,0.12,6.1851e-06
0.34,0.12,6.9328e-06
0.35,0.12,7.6903e-06
0.36,0.12,8.4508e-06
0.37,0.12,9.2084e-06
0.38,0.12,9.9584e-06
0.39,0.12,1.0697e-05
0.4,0.12,1.14212e-05
0.41,0.12,1.21288e-05
0.42,0.12,1.2818e-05
0.43,0.12,1.34877e-05
0.44,0.12,1.41371e-05
0.45,0.12,1.47656e-05
0.46,0.12,1.53731e-05
0.47,0.12,1.59593e-05
0.48,0.12,1.65244e-05
0.49,0.12,1.70686e-05
0.5,0.12,1.75922e-05
0.51,0.12,1.80955e-05
0.52,0.12,1.8579e-05
0.53,0.12,1.90434e-05
0.54,0.12,1.9489e-05
0.55,0.12,1.99165e-05
0.56,0.12,2.03266e-05
0.57,0.12,2.07198e-05
0.58,0.12,2.10968e-05
0.59,0.12,2.14581e-05
0.6,0.12,2.18046e-05
0.61,0.12,2.21366e-05
